Time [s],Value,Parity Error,Framing Error
3.8908600000,0x3C,,
3.8919100000,0xC0,,
3.8929650000,0x5C,,
3.8940150000,0x80,,
3.8950650000,0x5C,,
3.8961150000,0xC0,,
3.8971650000,0x5C,,
3.8982150000,0x82,,
3.8992650000,0xCA,,
3.9003200000,0x5C,,
3.9013700000,0x5C,,
3.9024200000,0xC8,,
3.9034700000,0x5C,,
3.9045200000,0xE2,,
3.9055700000,0x7C,,
3.9590300000,0x3C,,
3.9600800000,0xC0,,
3.9611300000,0x5C,,
3.9621800000,0x80,,
3.9632300000,0x5C,,
3.9642800000,0xC0,,
3.9653350000,0x5C,,
3.9663850000,0xCA,,
3.9674350000,0x2A,,
3.9684850000,0x5C,,
3.9695350000,0x5C,,
3.9705850000,0x60,,
3.9716350000,0x5C,,
3.9726850000,0xE2,,
3.9737400000,0x7C,,
5.0960750000,0x3C,,
5.0971300000,0xC0,,
5.0981800000,0x5C,,
5.0992300000,0x80,,
5.1002800000,0x5C,,
5.1013300000,0xC0,,
5.1023800000,0x5C,,
5.1034300000,0xCA,,
5.1044850000,0x2A,,
5.1055350000,0x5C,,
5.1065850000,0x5C,,
5.1076350000,0x60,,
5.1086850000,0x5C,,
5.1097350000,0xE2,,
5.1107850000,0x7C,,
6.1040050000,0x3C,,
6.1050550000,0xC0,,
6.1061050000,0x5C,,
6.1071550000,0x80,,
6.1082050000,0x5C,,
6.1092550000,0xC0,,
6.1103050000,0x5C,,
6.1113600000,0xCA,,
6.1124100000,0x2A,,
6.1134600000,0x5C,,
6.1145100000,0x5C,,
6.1155600000,0x60,,
6.1166100000,0x5C,,
6.1176600000,0xE2,,
6.1187150000,0x7C,,
7.1153900000,0x3C,,
7.1164400000,0xC0,,
7.1174900000,0x5C,,
7.1185450000,0x80,,
7.1195950000,0x5C,,
7.1206450000,0xC0,,
7.1216950000,0x5C,,
7.1227450000,0xCA,,
7.1237950000,0x2A,,
7.1248450000,0x5C,,
7.1258950000,0x5C,,
7.1269500000,0x60,,
7.1280000000,0x5C,,
7.1290500000,0xE2,,
7.1301000000,0x7C,,
8.1233050000,0x3C,,
8.1243550000,0xC0,,
8.1254050000,0x5C,,
8.1264550000,0x80,,
8.1275050000,0x5C,,
8.1285550000,0xC0,,
8.1296050000,0x5C,,
8.1306600000,0xCA,,
8.1317100000,0x2A,,
8.1327600000,0x5C,,
8.1338100000,0x5C,,
8.1348600000,0x60,,
8.1359100000,0x5C,,
8.1369600000,0xE2,,
8.1380150000,0x7C,,
9.1301700000,0x3C,,
9.1312200000,0xC0,,
9.1322700000,0x5C,,
9.1333200000,0x80,,
9.1343750000,0x5C,,
9.1354250000,0xC0,,
9.1364750000,0x5C,,
9.1375250000,0xCA,,
9.1385750000,0x2A,,
9.1396250000,0x5C,,
9.1406750000,0x5C,,
9.1417300000,0x60,,
9.1427800000,0x5C,,
9.1438300000,0xE2,,
9.1448800000,0x7C,,
10.1330350000,0x3C,,
10.1340850000,0xC0,,
10.1351350000,0x5C,,
10.1361850000,0x80,,
10.1372400000,0x5C,,
10.1382900000,0xC0,,
10.1393400000,0x5C,,
10.1403900000,0xCA,,
10.1414400000,0x2A,,
10.1424900000,0x5C,,
10.1435400000,0x5C,,
10.1445900000,0x60,,
10.1456450000,0x5C,,
10.1466950000,0xE2,,
10.1477450000,0x7C,,
11.1336850000,0x3C,,
11.1347350000,0xC0,,
11.1357850000,0x5C,,
11.1368400000,0x80,,
11.1378900000,0x5C,,
11.1389400000,0xC0,,
11.1399900000,0x5C,,
11.1410400000,0xCA,,
11.1420900000,0x2A,,
11.1431400000,0x5C,,
11.1441950000,0x5C,,
11.1452450000,0x60,,
11.1462950000,0x5C,,
11.1473450000,0xE2,,
11.1483950000,0x7C,,
12.1406450000,0x3C,,
12.1416950000,0xC0,,
12.1427450000,0x5C,,
12.1437950000,0x80,,
12.1448450000,0x5C,,
12.1458950000,0xC0,,
12.1469500000,0x5C,,
12.1480000000,0xCA,,
12.1490500000,0x2A,,
12.1501000000,0x5C,,
12.1511500000,0x5C,,
12.1522000000,0x60,,
12.1532500000,0x5C,,
12.1543050000,0xE2,,
12.1553550000,0x7C,,
12.2411650000,0x3C,,
12.2422150000,0xC0,,
12.2432650000,0x5C,,
12.2443200000,0x80,,
12.2453700000,0x5C,,
12.2464200000,0xC0,,
12.2474700000,0x5C,,
12.2485200000,0x82,,
12.2495700000,0xCA,,
12.2506200000,0x5C,,
12.2516750000,0x5C,,
12.2527250000,0xC8,,
12.2537750000,0x5C,,
12.2548250000,0xE2,,
12.2558750000,0x7C,,
12.3384550000,0x3C,,
12.3395050000,0xC0,,
12.3405600000,0x5C,,
12.3416100000,0x80,,
12.3426600000,0x5C,,
12.3437100000,0x60,,
12.3447600000,0x5C,,
12.3458100000,0x0A,,
12.3468600000,0x0A,,
12.3479100000,0x5C,,
12.3489650000,0x8C,,
12.3500150000,0x1C,,
12.3510650000,0x0C,,
12.3521150000,0x5C,,
12.3531650000,0xBC,,
12.3542150000,0x5C,,
12.3552650000,0xE2,,
12.3563200000,0x7C,,
12.5931900000,0x3C,,
12.5942450000,0xC0,,
12.5952950000,0x5C,,
12.5963450000,0x80,,
12.5973950000,0x5C,,
12.5984450000,0xC0,,
12.5994950000,0x5C,,
12.6005450000,0x82,,
12.6016000000,0xCA,,
12.6026500000,0x5C,,
12.6037000000,0x5C,,
12.6047500000,0xC8,,
12.6058000000,0x5C,,
12.6068500000,0xE2,,
12.6079000000,0x7C,,
12.8610500000,0x3C,,
12.8621000000,0xC0,,
12.8631550000,0x5C,,
12.8642050000,0x80,,
12.8652550000,0x5C,,
12.8663050000,0xC0,,
12.8673550000,0x5C,,
12.8684050000,0x82,,
12.8694550000,0xCA,,
12.8705100000,0x5C,,
12.8715600000,0x5C,,
12.8726100000,0xC8,,
12.8736600000,0x5C,,
12.8747100000,0xE2,,
12.8757600000,0x7C,,
13.1218300000,0x3C,,
13.1228800000,0xC0,,
13.1239300000,0x5C,,
13.1249800000,0x80,,
13.1260300000,0x5C,,
13.1270800000,0xC0,,
13.1281300000,0x5C,,
13.1291850000,0x82,,
13.1302350000,0xCA,,
13.1312850000,0x5C,,
13.1323350000,0x5C,,
13.1333850000,0xC8,,
13.1344350000,0x5C,,
13.1354850000,0xE2,,
13.1365350000,0x7C,,
13.3922050000,0x3C,,
13.3932600000,0xC0,,
13.3943100000,0x5C,,
13.3953600000,0x80,,
13.3964100000,0x5C,,
13.3974600000,0xC0,,
13.3985100000,0x5C,,
13.3995600000,0x82,,
13.4006150000,0xCA,,
13.4016650000,0x5C,,
13.4027150000,0x5C,,
13.4037650000,0xC8,,
13.4048150000,0x5C,,
13.4058650000,0xE2,,
13.4069150000,0x7C,,
13.6515600000,0x3C,,
13.6526150000,0xC0,,
13.6536650000,0x5C,,
13.6547150000,0x80,,
13.6557650000,0x5C,,
13.6568150000,0xC0,,
13.6578650000,0x5C,,
13.6589150000,0x82,,
13.6599700000,0xCA,,
13.6610200000,0x5C,,
13.6620700000,0x5C,,
13.6631200000,0xC8,,
13.6641700000,0x5C,,
13.6652200000,0xE2,,
13.6662700000,0x7C,,
13.9125500000,0x3C,,
13.9136000000,0xC0,,
13.9146550000,0x5C,,
13.9157050000,0x80,,
13.9167550000,0x5C,,
13.9178050000,0xC0,,
13.9188550000,0x5C,,
13.9199050000,0x82,,
13.9209550000,0xCA,,
13.9220100000,0x5C,,
13.9230600000,0x5C,,
13.9241100000,0xC8,,
13.9251600000,0x5C,,
13.9262100000,0xE2,,
13.9272600000,0x7C,,
14.1823950000,0x3C,,
14.1834450000,0xC0,,
14.1844950000,0x5C,,
14.1855450000,0x80,,
14.1866000000,0x5C,,
14.1876500000,0xC0,,
14.1887000000,0x5C,,
14.1897500000,0x82,,
14.1908000000,0xCA,,
14.1918500000,0x5C,,
14.1929000000,0x5C,,
14.1939500000,0xC8,,
14.1950050000,0x5C,,
14.1960550000,0xE2,,
14.1971050000,0x7C,,
14.4643550000,0x3C,,
14.4654050000,0xC0,,
14.4664550000,0x5C,,
14.4675050000,0x80,,
14.4685550000,0x5C,,
14.4696050000,0xC0,,
14.4706550000,0x5C,,
14.4717100000,0x82,,
14.4727600000,0xCA,,
14.4738100000,0x5C,,
14.4748600000,0x5C,,
14.4759100000,0xC8,,
14.4769600000,0x5C,,
14.4780100000,0xE2,,
14.4790650000,0x7C,,
14.7354150000,0x3C,,
14.7364650000,0xC0,,
14.7375150000,0x5C,,
14.7385650000,0x80,,
14.7396200000,0x5C,,
14.7406700000,0xC0,,
14.7417200000,0x5C,,
14.7427700000,0x82,,
14.7438200000,0xCA,,
14.7448700000,0x5C,,
14.7459200000,0x5C,,
14.7469700000,0xC8,,
14.7480250000,0x5C,,
14.7490750000,0xE2,,
14.7501250000,0x7C,,
14.9953850000,0x3C,,
14.9964350000,0xC0,,
14.9974850000,0x5C,,
14.9985400000,0x80,,
14.9995900000,0x5C,,
15.0006400000,0xC0,,
15.0016900000,0x5C,,
15.0027400000,0x82,,
15.0037900000,0xCA,,
15.0048400000,0x5C,,
15.0058950000,0x5C,,
15.0069450000,0xC8,,
15.0079950000,0x5C,,
15.0090450000,0xE2,,
15.0100950000,0x7C,,
15.2665500000,0x3C,,
15.2676000000,0xC0,,
15.2686550000,0x5C,,
15.2697050000,0x80,,
15.2707550000,0x5C,,
15.2718050000,0xC0,,
15.2728550000,0x5C,,
15.2739050000,0x82,,
15.2749550000,0xCA,,
15.2760100000,0x5C,,
15.2770600000,0x5C,,
15.2781100000,0xC8,,
15.2791600000,0x5C,,
15.2802100000,0xE2,,
15.2812600000,0x7C,,
15.5381300000,0x3C,,
15.5391800000,0xC0,,
15.5402300000,0x5C,,
15.5412850000,0x80,,
15.5423350000,0x5C,,
15.5433850000,0xC0,,
15.5444350000,0x5C,,
15.5454850000,0x82,,
15.5465350000,0xCA,,
15.5475850000,0x5C,,
15.5486400000,0x5C,,
15.5496900000,0xC8,,
15.5507400000,0x5C,,
15.5517900000,0xE2,,
15.5528400000,0x7C,,
15.7950550000,0x3C,,
15.7961050000,0xC0,,
15.7971550000,0x5C,,
15.7982050000,0x80,,
15.7992550000,0x5C,,
15.8003050000,0xC0,,
15.8013600000,0x5C,,
15.8024100000,0x82,,
15.8034600000,0xCA,,
15.8045100000,0x5C,,
15.8055600000,0x5C,,
15.8066100000,0xC8,,
15.8076600000,0x5C,,
15.8087150000,0xE2,,
15.8097650000,0x7C,,
16.0576850000,0x3C,,
16.0587350000,0xC0,,
16.0597900000,0x5C,,
16.0608400000,0x80,,
16.0618900000,0x5C,,
16.0629400000,0xC0,,
16.0639900000,0x5C,,
16.0650400000,0x82,,
16.0660900000,0xCA,,
16.0671400000,0x5C,,
16.0681950000,0x5C,,
16.0692450000,0xC8,,
16.0702950000,0x5C,,
16.0713450000,0xE2,,
16.0723950000,0x7C,,
16.3275700000,0x3C,,
16.3286250000,0xC0,,
16.3296750000,0x5C,,
16.3307250000,0x80,,
16.3317750000,0x5C,,
16.3328250000,0xC0,,
16.3338750000,0x5C,,
16.3349250000,0x82,,
16.3359800000,0xCA,,
16.3370300000,0x5C,,
16.3380800000,0x5C,,
16.3391300000,0xC8,,
16.3401800000,0x5C,,
16.3412300000,0xE2,,
16.3422800000,0x7C,,
16.5984300000,0x3C,,
16.5994800000,0xC0,,
16.6005300000,0x5C,,
16.6015800000,0x80,,
16.6026300000,0x5C,,
16.6036800000,0xC0,,
16.6047350000,0x5C,,
16.6057850000,0x82,,
16.6068350000,0xCA,,
16.6078850000,0x5C,,
16.6089350000,0x5C,,
16.6099850000,0xC8,,
16.6110350000,0x5C,,
16.6120900000,0xE2,,
16.6131400000,0x7C,,
16.8564300000,0x3C,,
16.8574800000,0xC0,,
16.8585350000,0x5C,,
16.8595850000,0x80,,
16.8606350000,0x5C,,
16.8616850000,0xC0,,
16.8627350000,0x5C,,
16.8637850000,0x82,,
16.8648350000,0xCA,,
16.8658900000,0x5C,,
16.8669400000,0x5C,,
16.8679900000,0xC8,,
16.8690400000,0x5C,,
16.8700900000,0xE2,,
16.8711400000,0x7C,,
17.1122300000,0x3C,,
17.1132800000,0xC0,,
17.1143300000,0x5C,,
17.1153800000,0x80,,
17.1164300000,0x5C,,
17.1174850000,0xC0,,
17.1185350000,0x5C,,
17.1195850000,0x82,,
17.1206350000,0xCA,,
17.1216850000,0x5C,,
17.1227350000,0x5C,,
17.1237850000,0xC8,,
17.1248350000,0x5C,,
17.1258900000,0xE2,,
17.1269400000,0x7C,,
17.3820900000,0x3C,,
17.3831400000,0xC0,,
17.3841900000,0x5C,,
17.3852450000,0x80,,
17.3862950000,0x5C,,
17.3873450000,0xC0,,
17.3883950000,0x5C,,
17.3894450000,0x82,,
17.3904950000,0xCA,,
17.3915450000,0x5C,,
17.3926000000,0x5C,,
17.3936500000,0xC8,,
17.3947000000,0x5C,,
17.3957500000,0xE2,,
17.3968000000,0x7C,,
17.6420150000,0x3C,,
17.6430650000,0xC0,,
17.6441150000,0x5C,,
17.6451650000,0x80,,
17.6462150000,0x5C,,
17.6472650000,0xC0,,
17.6483200000,0x5C,,
17.6493700000,0x82,,
17.6504200000,0xCA,,
17.6514700000,0x5C,,
17.6525200000,0x5C,,
17.6535700000,0xC8,,
17.6546200000,0x5C,,
17.6556750000,0xE2,,
17.6567250000,0x7C,,
17.8997550000,0x3C,,
17.9008050000,0xC0,,
17.9018550000,0x5C,,
17.9029050000,0x80,,
17.9039550000,0x5C,,
17.9050050000,0xC0,,
17.9060550000,0x5C,,
17.9071100000,0x82,,
17.9081600000,0xCA,,
17.9092100000,0x5C,,
17.9102600000,0x5C,,
17.9113100000,0xC8,,
17.9123600000,0x5C,,
17.9134100000,0xE2,,
17.9144650000,0x7C,,
18.1596650000,0x3C,,
18.1607150000,0xC0,,
18.1617650000,0x5C,,
18.1628150000,0x80,,
18.1638700000,0x5C,,
18.1649200000,0xC0,,
18.1659700000,0x5C,,
18.1670200000,0x82,,
18.1680700000,0xCA,,
18.1691200000,0x5C,,
18.1701700000,0x5C,,
18.1712250000,0xC8,,
18.1722750000,0x5C,,
18.1733250000,0xE2,,
18.1743750000,0x7C,,
18.4284450000,0x3C,,
18.4294950000,0xC0,,
18.4305450000,0x5C,,
18.4315950000,0x80,,
18.4326450000,0x5C,,
18.4337000000,0xC0,,
18.4347500000,0x5C,,
18.4358000000,0x82,,
18.4368500000,0xCA,,
18.4379000000,0x5C,,
18.4389500000,0x5C,,
18.4400000000,0xC8,,
18.4410550000,0x5C,,
18.4421050000,0xE2,,
18.4431550000,0x7C,,
18.6934300000,0x3C,,
18.6944800000,0xC0,,
18.6955350000,0x5C,,
18.6965850000,0x80,,
18.6976350000,0x5C,,
18.6986850000,0xC0,,
18.6997350000,0x5C,,
18.7007850000,0x82,,
18.7018350000,0xCA,,
18.7028900000,0x5C,,
18.7039400000,0x5C,,
18.7049900000,0xC8,,
18.7060400000,0x5C,,
18.7070900000,0xE2,,
18.7081400000,0x7C,,
18.9533300000,0x3C,,
18.9543800000,0xC0,,
18.9554300000,0x5C,,
18.9564800000,0x80,,
18.9575300000,0x5C,,
18.9585800000,0xC0,,
18.9596300000,0x5C,,
18.9606850000,0x82,,
18.9617350000,0xCA,,
18.9627850000,0x5C,,
18.9638350000,0x5C,,
18.9648850000,0xC8,,
18.9659350000,0x5C,,
18.9669850000,0xE2,,
18.9680350000,0x7C,,
19.2232400000,0x3C,,
19.2242900000,0xC0,,
19.2253400000,0x5C,,
19.2263900000,0x80,,
19.2274400000,0x5C,,
19.2284900000,0xC0,,
19.2295400000,0x5C,,
19.2305900000,0x82,,
19.2316450000,0xCA,,
19.2326950000,0x5C,,
19.2337450000,0x5C,,
19.2347950000,0xC8,,
19.2358450000,0x5C,,
19.2368950000,0xE2,,
19.2379450000,0x7C,,
19.3132250000,0x3C,,
19.3142750000,0xC0,,
19.3153300000,0x5C,,
19.3163800000,0x80,,
19.3174300000,0x5C,,
19.3184800000,0xC0,,
19.3195300000,0x5C,,
19.3205800000,0x82,,
19.3216300000,0xCA,,
19.3226800000,0x5C,,
19.3237350000,0x5C,,
19.3247850000,0xC8,,
19.3258350000,0x5C,,
19.3268850000,0xE2,,
19.3279350000,0x7C,,
19.3931550000,0x3C,,
19.3942050000,0xC0,,
19.3952550000,0x5C,,
19.3963100000,0x80,,
19.3973600000,0x5C,,
19.3984100000,0x60,,
19.3994600000,0x5C,,
19.4005100000,0x2A,,
19.4015600000,0x0A,,
19.4026100000,0x5C,,
19.4036650000,0x0C,,
19.4047150000,0x8C,,
19.4057650000,0x0C,,
19.4068150000,0x5C,,
19.4078650000,0x8C,,
19.4089150000,0x5C,,
19.4099650000,0xE2,,
19.4110200000,0x7C,,
19.6630750000,0x3C,,
19.6641250000,0xC0,,
19.6651800000,0x5C,,
19.6662300000,0x80,,
19.6672800000,0x5C,,
19.6683300000,0xC0,,
19.6693800000,0x5C,,
19.6704300000,0x82,,
19.6714800000,0xCA,,
19.6725350000,0x5C,,
19.6735850000,0x5C,,
19.6746350000,0xC8,,
19.6756850000,0x5C,,
19.6767350000,0xE2,,
19.6777850000,0x7C,,
19.9310900000,0x3C,,
19.9321400000,0xC0,,
19.9331900000,0x5C,,
19.9342400000,0x80,,
19.9352900000,0x5C,,
19.9363400000,0xC0,,
19.9373900000,0x5C,,
19.9384400000,0x82,,
19.9394950000,0xCA,,
19.9405450000,0x5C,,
19.9415950000,0x5C,,
19.9426450000,0xC8,,
19.9436950000,0x5C,,
19.9447450000,0xE2,,
19.9457950000,0x7C,,
20.1939200000,0x3C,,
20.1949700000,0xC0,,
20.1960200000,0x5C,,
20.1970700000,0x80,,
20.1981250000,0x5C,,
20.1991750000,0xC0,,
20.2002250000,0x5C,,
20.2012750000,0x82,,
20.2023250000,0xCA,,
20.2033750000,0x5C,,
20.2044250000,0x5C,,
20.2054800000,0xC8,,
20.2065300000,0x5C,,
20.2075800000,0xE2,,
20.2086300000,0x7C,,
21.1964200000,0x3C,,
21.1974700000,0xC0,,
21.1985250000,0x5C,,
21.1995750000,0x80,,
21.2006250000,0x5C,,
21.2016750000,0xC0,,
21.2027250000,0x5C,,
21.2037750000,0xCA,,
21.2048250000,0x2A,,
21.2058800000,0x5C,,
21.2069300000,0x5C,,
21.2079800000,0x60,,
21.2090300000,0x5C,,
21.2100800000,0xE2,,
21.2111300000,0x7C,,
22.2055500000,0x3C,,
22.2066000000,0xC0,,
22.2076500000,0x5C,,
22.2087000000,0x80,,
22.2097550000,0x5C,,
22.2108050000,0xC0,,
22.2118550000,0x5C,,
22.2129050000,0xCA,,
22.2139550000,0x2A,,
22.2150050000,0x5C,,
22.2160550000,0x5C,,
22.2171100000,0x60,,
22.2181600000,0x5C,,
22.2192100000,0xE2,,
22.2202600000,0x7C,,
23.2143600000,0x3C,,
23.2154100000,0xC0,,
23.2164600000,0x5C,,
23.2175100000,0x80,,
23.2185600000,0x5C,,
23.2196100000,0xC0,,
23.2206650000,0x5C,,
23.2217150000,0xCA,,
23.2227650000,0x2A,,
23.2238150000,0x5C,,
23.2248650000,0x5C,,
23.2259150000,0x60,,
23.2269650000,0x5C,,
23.2280200000,0xE2,,
23.2290700000,0x7C,,
24.2191900000,0x3C,,
24.2202400000,0xC0,,
24.2212900000,0x5C,,
24.2223400000,0x80,,
24.2233900000,0x5C,,
24.2244400000,0xC0,,
24.2254950000,0x5C,,
24.2265450000,0xCA,,
24.2275950000,0x2A,,
24.2286450000,0x5C,,
24.2296950000,0x5C,,
24.2307450000,0x60,,
24.2317950000,0x5C,,
24.2328500000,0xE2,,
24.2339000000,0x7C,,
25.2260650000,0x3C,,
25.2271150000,0xC0,,
25.2281650000,0x5C,,
25.2292150000,0x80,,
25.2302650000,0x5C,,
25.2313150000,0xC0,,
25.2323700000,0x5C,,
25.2334200000,0xCA,,
25.2344700000,0x2A,,
25.2355200000,0x5C,,
25.2365700000,0x5C,,
25.2376200000,0x60,,
25.2386700000,0x5C,,
25.2397250000,0xE2,,
25.2407750000,0x7C,,
