Time [s],Value,Parity Error,Framing Error
4.1101450000,0x3C,,
4.1112900000,0x80,,
4.1124350000,0x5C,,
4.1135800000,0xC0,,
4.1147250000,0x5C,,
4.1158700000,0x70,,
4.1170150000,0x5C,,
4.1181600000,0x60,,
4.1193050000,0x5C,,
4.1204500000,0x82,,
4.1215950000,0xCA,,
4.1227400000,0xF8,,
4.1238850000,0xF8,,
4.1250350000,0x8C,,
4.1261800000,0x1C,,
4.1273250000,0x0C,,
4.1284700000,0xCC,,
4.1296150000,0xAC,,
4.1307600000,0x9C,,
4.1319050000,0x8C,,
4.1330500000,0x8C,,
4.1341950000,0x5C,,
4.1353400000,0x78,,
4.1364850000,0x5C,,
4.1376300000,0xE2,,
4.1387750000,0x7C,,
4.2009300000,0x3C,,
4.2020750000,0x80,,
4.2032200000,0x5C,,
4.2043650000,0xC0,,
4.2055100000,0x5C,,
4.2066550000,0xB0,,
4.2078000000,0x5C,,
4.2089450000,0x60,,
4.2100900000,0x5C,,
4.2112350000,0xCA,,
4.2123800000,0x2A,,
4.2135250000,0x18,,
4.2146700000,0x00,,
4.2158150000,0x00,,
4.2169600000,0x8C,,
4.2181050000,0x1C,,
4.2192500000,0x0C,,
4.2204000000,0xCC,,
4.2215450000,0xAC,,
4.2226900000,0x9C,,
4.2238350000,0x5C,,
4.2249800000,0x08,,
4.2261250000,0x5C,,
4.2272700000,0xE2,,
4.2284150000,0x7C,,
5.3365550000,0x3C,,
5.3377050000,0x80,,
5.3388500000,0x5C,,
5.3399950000,0xC0,,
5.3411400000,0x5C,,
5.3422850000,0xB0,,
5.3434300000,0x5C,,
5.3445750000,0x60,,
5.3457200000,0x5C,,
5.3468650000,0xCA,,
5.3480100000,0x2A,,
5.3491550000,0x18,,
5.3503000000,0x00,,
5.3514450000,0x00,,
5.3525900000,0x8C,,
5.3537350000,0x1C,,
5.3548800000,0x0C,,
5.3560250000,0xCC,,
5.3571700000,0xAC,,
5.3583150000,0x9C,,
5.3594600000,0x5C,,
5.3606050000,0x08,,
5.3617500000,0x5C,,
5.3628950000,0xE2,,
5.3640400000,0x7C,,
6.3312850000,0x3C,,
6.3324300000,0x80,,
6.3335750000,0x5C,,
6.3347200000,0xC0,,
6.3358650000,0x5C,,
6.3370150000,0xB0,,
6.3381600000,0x5C,,
6.3393050000,0x60,,
6.3404500000,0x5C,,
6.3415950000,0xCA,,
6.3427400000,0x2A,,
6.3438850000,0x18,,
6.3450300000,0x00,,
6.3461750000,0x00,,
6.3473200000,0x8C,,
6.3484650000,0x1C,,
6.3496100000,0x0C,,
6.3507550000,0xCC,,
6.3519000000,0xAC,,
6.3530450000,0x9C,,
6.3541900000,0x5C,,
6.3553350000,0x08,,
6.3564800000,0x5C,,
6.3576250000,0xE2,,
6.3587700000,0x7C,,
7.3460950000,0x3C,,
7.3472400000,0x80,,
7.3483850000,0x5C,,
7.3495300000,0xC0,,
7.3506750000,0x5C,,
7.3518200000,0xB0,,
7.3529650000,0x5C,,
7.3541100000,0x60,,
7.3552550000,0x5C,,
7.3564000000,0xCA,,
7.3575450000,0x2A,,
7.3586900000,0x18,,
7.3598350000,0x00,,
7.3609800000,0x00,,
7.3621250000,0x8C,,
7.3632700000,0x1C,,
7.3644150000,0x0C,,
7.3655600000,0xCC,,
7.3667050000,0xAC,,
7.3678500000,0x9C,,
7.3689950000,0x5C,,
7.3701400000,0x08,,
7.3712850000,0x5C,,
7.3724300000,0xE2,,
7.3735750000,0x7C,,
8.3609150000,0x3C,,
8.3620600000,0x80,,
8.3632050000,0x5C,,
8.3643500000,0xC0,,
8.3654950000,0x5C,,
8.3666400000,0xB0,,
8.3677850000,0x5C,,
8.3689300000,0x60,,
8.3700750000,0x5C,,
8.3712200000,0xCA,,
8.3723650000,0x2A,,
8.3735100000,0x18,,
8.3746550000,0x00,,
8.3758000000,0x00,,
8.3769450000,0x8C,,
8.3780900000,0x1C,,
8.3792350000,0x0C,,
8.3803800000,0xCC,,
8.3815250000,0xAC,,
8.3826700000,0x9C,,
8.3838150000,0x5C,,
8.3849600000,0x08,,
8.3861050000,0x5C,,
8.3872500000,0xE2,,
8.3883950000,0x7C,,
9.3556500000,0x3C,,
9.3567950000,0x80,,
9.3579400000,0x5C,,
9.3590850000,0xC0,,
9.3602350000,0x5C,,
9.3613800000,0xB0,,
9.3625250000,0x5C,,
9.3636700000,0x60,,
9.3648150000,0x5C,,
9.3659600000,0xCA,,
9.3671050000,0x2A,,
9.3682500000,0x18,,
9.3693950000,0x00,,
9.3705400000,0x00,,
9.3716850000,0x8C,,
9.3728300000,0x1C,,
9.3739750000,0x0C,,
9.3751200000,0xCC,,
9.3762650000,0xAC,,
9.3774100000,0x9C,,
9.3785550000,0x5C,,
9.3797000000,0x08,,
9.3808450000,0x5C,,
9.3819900000,0xE2,,
9.3831350000,0x7C,,
10.3704850000,0x3C,,
10.3716300000,0x80,,
10.3727750000,0x5C,,
10.3739200000,0xC0,,
10.3750650000,0x5C,,
10.3762150000,0xB0,,
10.3773600000,0x5C,,
10.3785050000,0x60,,
10.3796500000,0x5C,,
10.3807950000,0xCA,,
10.3819400000,0x2A,,
10.3830850000,0x18,,
10.3842300000,0x00,,
10.3853750000,0x00,,
10.3865200000,0x8C,,
10.3876650000,0x1C,,
10.3888100000,0x0C,,
10.3899550000,0xCC,,
10.3911000000,0xAC,,
10.3922450000,0x9C,,
10.3933900000,0x5C,,
10.3945350000,0x08,,
10.3956800000,0x5C,,
10.3968250000,0xE2,,
10.3979700000,0x7C,,
11.3652350000,0x3C,,
11.3663800000,0x80,,
11.3675250000,0x5C,,
11.3686700000,0xC0,,
11.3698150000,0x5C,,
11.3709600000,0xB0,,
11.3721100000,0x5C,,
11.3732550000,0x60,,
11.3744000000,0x5C,,
11.3755450000,0xCA,,
11.3766900000,0x2A,,
11.3778350000,0x18,,
11.3789800000,0x00,,
11.3801250000,0x00,,
11.3812700000,0x8C,,
11.3824150000,0x1C,,
11.3835600000,0x0C,,
11.3847050000,0xCC,,
11.3858500000,0xAC,,
11.3869950000,0x9C,,
11.3881400000,0x5C,,
11.3892850000,0x08,,
11.3904300000,0x5C,,
11.3915750000,0xE2,,
11.3927200000,0x7C,,
12.1387500000,0x3C,,
12.1398950000,0x80,,
12.1410400000,0x5C,,
12.1421850000,0xC0,,
12.1433300000,0x5C,,
12.1444750000,0x70,,
12.1456200000,0x5C,,
12.1467650000,0x60,,
12.1479100000,0x5C,,
12.1490550000,0x82,,
12.1502000000,0xCA,,
12.1513450000,0xF8,,
12.1524900000,0xF8,,
12.1536350000,0x8C,,
12.1547800000,0x1C,,
12.1559250000,0x0C,,
12.1570700000,0xCC,,
12.1582150000,0xAC,,
12.1593600000,0x9C,,
12.1605050000,0x8C,,
12.1616500000,0x8C,,
12.1627950000,0x5C,,
12.1639400000,0x78,,
12.1650850000,0x5C,,
12.1662300000,0xE2,,
12.1673750000,0x7C,,
12.2299450000,0x3C,,
12.2310900000,0x80,,
12.2322350000,0x5C,,
12.2333800000,0xC0,,
12.2345250000,0x5C,,
12.2356700000,0xE0,,
12.2368150000,0x5C,,
12.2379600000,0x60,,
12.2391050000,0x5C,,
12.2402500000,0x0A,,
12.2413950000,0x0A,,
12.2425400000,0x0C,,
12.2436850000,0x8C,,
12.2448300000,0x0C,,
12.2459750000,0x5C,,
12.2471200000,0x4C,,
12.2482650000,0x5C,,
12.2494100000,0xE2,,
12.2505550000,0x7C,,
12.4886500000,0x3C,,
12.4897950000,0x80,,
12.4909400000,0x5C,,
12.4920850000,0xC0,,
12.4932300000,0x5C,,
12.4943750000,0x70,,
12.4955200000,0x5C,,
12.4966650000,0x60,,
12.4978100000,0x5C,,
12.4989550000,0x82,,
12.5001000000,0xCA,,
12.5012450000,0xF8,,
12.5023900000,0xF8,,
12.5035350000,0x8C,,
12.5046800000,0xEC,,
12.5058250000,0xAC,,
12.5069700000,0xCC,,
12.5081150000,0xAC,,
12.5092600000,0x9C,,
12.5104100000,0x8C,,
12.5115550000,0x8C,,
12.5127000000,0x5C,,
12.5138450000,0x28,,
12.5149900000,0x5C,,
12.5161350000,0xE2,,
12.5172800000,0x7C,,
12.7566200000,0x3C,,
12.7577650000,0x80,,
12.7589100000,0x5C,,
12.7600550000,0xC0,,
12.7612000000,0x5C,,
12.7623450000,0x70,,
12.7634900000,0x5C,,
12.7646350000,0x60,,
12.7657800000,0x5C,,
12.7669250000,0x82,,
12.7680750000,0xCA,,
12.7692200000,0xF8,,
12.7703650000,0xF8,,
12.7715100000,0x8C,,
12.7726550000,0x6C,,
12.7738000000,0x1C,,
12.7749450000,0xCC,,
12.7760900000,0xAC,,
12.7772350000,0x9C,,
12.7783800000,0x8C,,
12.7795250000,0x8C,,
12.7806700000,0x5C,,
12.7818150000,0x18,,
12.7829600000,0x5C,,
12.7841050000,0xE2,,
12.7852500000,0x7C,,
13.0247050000,0x3C,,
13.0258500000,0x80,,
13.0269950000,0x5C,,
13.0281400000,0xC0,,
13.0292850000,0x5C,,
13.0304300000,0x70,,
13.0315750000,0x5C,,
13.0327200000,0x60,,
13.0338650000,0x5C,,
13.0350100000,0x82,,
13.0361550000,0xCA,,
13.0373000000,0xF8,,
13.0384450000,0xF8,,
13.0395900000,0x8C,,
13.0407350000,0x6C,,
13.0418800000,0x8C,,
13.0430250000,0xCC,,
13.0441700000,0xAC,,
13.0453150000,0x9C,,
13.0464650000,0x8C,,
13.0476100000,0x8C,,
13.0487550000,0x5C,,
13.0499000000,0x88,,
13.0510450000,0x5C,,
13.0521900000,0xE2,,
13.0533350000,0x7C,,
13.2926900000,0x3C,,
13.2938350000,0x80,,
13.2949800000,0x5C,,
13.2961250000,0xC0,,
13.2972700000,0x5C,,
13.2984150000,0x70,,
13.2995600000,0x5C,,
13.3007050000,0x60,,
13.3018500000,0x5C,,
13.3029950000,0x82,,
13.3041400000,0xCA,,
13.3052900000,0xF8,,
13.3064350000,0xF8,,
13.3075800000,0x8C,,
13.3087250000,0xAC,,
13.3098700000,0x2C,,
13.3110150000,0xCC,,
13.3121600000,0xAC,,
13.3133050000,0x9C,,
13.3144500000,0x8C,,
13.3155950000,0x8C,,
13.3167400000,0x5C,,
13.3178850000,0xE8,,
13.3190300000,0x5C,,
13.3201750000,0xE2,,
13.3213200000,0x7C,,
13.5606750000,0x3C,,
13.5618200000,0x80,,
13.5629650000,0x5C,,
13.5641100000,0xC0,,
13.5652550000,0x5C,,
13.5664000000,0x70,,
13.5675450000,0x5C,,
13.5686900000,0x60,,
13.5698350000,0x5C,,
13.5709800000,0x82,,
13.5721250000,0xCA,,
13.5732700000,0xF8,,
13.5744150000,0xF8,,
13.5755600000,0x8C,,
13.5767050000,0x2C,,
13.5778500000,0x6C,,
13.5789950000,0xCC,,
13.5801400000,0xAC,,
13.5812850000,0x9C,,
13.5824300000,0x8C,,
13.5835750000,0x8C,,
13.5847200000,0x5C,,
13.5858650000,0x28,,
13.5870100000,0x5C,,
13.5881550000,0xE2,,
13.5893000000,0x7C,,
13.8183450000,0x3C,,
13.8194900000,0x80,,
13.8206350000,0x5C,,
13.8217800000,0xC0,,
13.8229250000,0x5C,,
13.8240700000,0x70,,
13.8252150000,0x5C,,
13.8263600000,0x60,,
13.8275050000,0x5C,,
13.8286500000,0x82,,
13.8297950000,0xCA,,
13.8309450000,0xF8,,
13.8320900000,0xF8,,
13.8332350000,0x8C,,
13.8343800000,0xCC,,
13.8355250000,0x9C,,
13.8366700000,0xCC,,
13.8378150000,0xAC,,
13.8389600000,0x9C,,
13.8401050000,0x8C,,
13.8412500000,0x8C,,
13.8423950000,0x5C,,
13.8435400000,0x38,,
13.8446850000,0x5C,,
13.8458300000,0xE2,,
13.8469750000,0x7C,,
14.0864350000,0x3C,,
14.0875800000,0x80,,
14.0887250000,0x5C,,
14.0898700000,0xC0,,
14.0910150000,0x5C,,
14.0921600000,0x70,,
14.0933050000,0x5C,,
14.0944500000,0x60,,
14.0955950000,0x5C,,
14.0967400000,0x82,,
14.0978900000,0xCA,,
14.0990350000,0xF8,,
14.1001800000,0xF8,,
14.1013250000,0x8C,,
14.1024700000,0xCC,,
14.1036150000,0x4C,,
14.1047600000,0xCC,,
14.1059050000,0xAC,,
14.1070500000,0x9C,,
14.1081950000,0x8C,,
14.1093400000,0x8C,,
14.1104850000,0x5C,,
14.1116300000,0xE8,,
14.1127750000,0x5C,,
14.1139200000,0xE2,,
14.1150650000,0x7C,,
14.3441100000,0x3C,,
14.3452550000,0x80,,
14.3464000000,0x5C,,
14.3475450000,0xC0,,
14.3486900000,0x5C,,
14.3498350000,0x70,,
14.3509800000,0x5C,,
14.3521250000,0x60,,
14.3532750000,0x5C,,
14.3544200000,0x82,,
14.3555650000,0xCA,,
14.3567100000,0xF8,,
14.3578550000,0xF8,,
14.3590000000,0x8C,,
14.3601450000,0x4C,,
14.3612900000,0xAC,,
14.3624350000,0xCC,,
14.3635800000,0xAC,,
14.3647250000,0x9C,,
14.3658700000,0x8C,,
14.3670150000,0x8C,,
14.3681600000,0x5C,,
14.3693050000,0x88,,
14.3704500000,0x5C,,
14.3715950000,0xE2,,
14.3727400000,0x7C,,
14.6120900000,0x3C,,
14.6132350000,0x80,,
14.6143800000,0x5C,,
14.6155250000,0xC0,,
14.6166700000,0x5C,,
14.6178150000,0x70,,
14.6189600000,0x5C,,
14.6201050000,0x60,,
14.6212500000,0x5C,,
14.6223950000,0x82,,
14.6235400000,0xCA,,
14.6246850000,0xF8,,
14.6258300000,0xF8,,
14.6269750000,0x8C,,
14.6281200000,0x8C,,
14.6292650000,0x1C,,
14.6304100000,0xCC,,
14.6315550000,0xAC,,
14.6327000000,0x9C,,
14.6338450000,0x8C,,
14.6349900000,0x8C,,
14.6361350000,0x5C,,
14.6372800000,0xF8,,
14.6384250000,0x5C,,
14.6395750000,0xE2,,
14.6407200000,0x7C,,
14.8698650000,0x3C,,
14.8710100000,0x80,,
14.8721550000,0x5C,,
14.8733050000,0xC0,,
14.8744500000,0x5C,,
14.8755950000,0x70,,
14.8767400000,0x5C,,
14.8778850000,0x60,,
14.8790300000,0x5C,,
14.8801750000,0x82,,
14.8813200000,0xCA,,
14.8824650000,0xF8,,
14.8836100000,0xF8,,
14.8847550000,0x8C,,
14.8859000000,0x8C,,
14.8870450000,0x8C,,
14.8881900000,0xCC,,
14.8893350000,0xAC,,
14.8904800000,0x9C,,
14.8916250000,0x8C,,
14.8927700000,0x8C,,
14.8939150000,0x5C,,
14.8950600000,0x68,,
14.8962050000,0x5C,,
14.8973500000,0xE2,,
14.8984950000,0x7C,,
15.1275400000,0x3C,,
15.1286850000,0x80,,
15.1298300000,0x5C,,
15.1309750000,0xC0,,
15.1321200000,0x5C,,
15.1332650000,0x70,,
15.1344100000,0x5C,,
15.1355550000,0x60,,
15.1367000000,0x5C,,
15.1378450000,0x82,,
15.1389900000,0xCA,,
15.1401350000,0xF8,,
15.1412800000,0xF8,,
15.1424250000,0x8C,,
15.1435700000,0x0C,,
15.1447150000,0x2C,,
15.1458600000,0xCC,,
15.1470050000,0xAC,,
15.1481500000,0x9C,,
15.1493000000,0x8C,,
15.1504450000,0x8C,,
15.1515900000,0x5C,,
15.1527350000,0x48,,
15.1538800000,0x5C,,
15.1550250000,0xE2,,
15.1561700000,0x7C,,
15.3852150000,0x3C,,
15.3863600000,0x80,,
15.3875050000,0x5C,,
15.3886500000,0xC0,,
15.3897950000,0x5C,,
15.3909400000,0x70,,
15.3920850000,0x5C,,
15.3932300000,0x60,,
15.3943750000,0x5C,,
15.3955200000,0x82,,
15.3966650000,0xCA,,
15.3978100000,0xF8,,
15.3989550000,0xF8,,
15.4001000000,0x0C,,
15.4012450000,0x9C,,
15.4023900000,0x1C,,
15.4035350000,0xCC,,
15.4046800000,0xAC,,
15.4058250000,0x9C,,
15.4069700000,0x8C,,
15.4081200000,0x8C,,
15.4092650000,0x5C,,
15.4104100000,0x68,,
15.4115550000,0x5C,,
15.4127000000,0xE2,,
15.4138450000,0x7C,,
15.6532050000,0x3C,,
15.6543500000,0x80,,
15.6554950000,0x5C,,
15.6566400000,0xC0,,
15.6577850000,0x5C,,
15.6589300000,0x70,,
15.6600750000,0x5C,,
15.6612200000,0x60,,
15.6623650000,0x5C,,
15.6635100000,0x82,,
15.6646550000,0xCA,,
15.6658050000,0xF8,,
15.6669500000,0xF8,,
15.6680950000,0x0C,,
15.6692400000,0x9C,,
15.6703850000,0x0C,,
15.6715300000,0xCC,,
15.6726750000,0xAC,,
15.6738200000,0x9C,,
15.6749650000,0x8C,,
15.6761100000,0x8C,,
15.6772550000,0x5C,,
15.6784000000,0x78,,
15.6795450000,0x5C,,
15.6806900000,0xE2,,
15.6818350000,0x7C,,
15.9108850000,0x3C,,
15.9120300000,0x80,,
15.9131750000,0x5C,,
15.9143200000,0xC0,,
15.9154650000,0x5C,,
15.9166100000,0x70,,
15.9177550000,0x5C,,
15.9189000000,0x60,,
15.9200500000,0x5C,,
15.9211950000,0x82,,
15.9223400000,0xCA,,
15.9234850000,0xF8,,
15.9246300000,0xF8,,
15.9257750000,0x0C,,
15.9269200000,0x1C,,
15.9280650000,0x2C,,
15.9292100000,0xCC,,
15.9303550000,0xAC,,
15.9315000000,0x9C,,
15.9326450000,0x8C,,
15.9337900000,0x8C,,
15.9349350000,0x5C,,
15.9360800000,0xD8,,
15.9372250000,0x5C,,
15.9383700000,0xE2,,
15.9395150000,0x7C,,
16.1787700000,0x3C,,
16.1799150000,0x80,,
16.1810600000,0x5C,,
16.1822050000,0xC0,,
16.1833500000,0x5C,,
16.1844950000,0x70,,
16.1856400000,0x5C,,
16.1867850000,0x60,,
16.1879300000,0x5C,,
16.1890750000,0x82,,
16.1902200000,0xCA,,
16.1913650000,0xF8,,
16.1925100000,0xF8,,
16.1936550000,0x0C,,
16.1948000000,0xEC,,
16.1959450000,0x6C,,
16.1970900000,0xCC,,
16.1982350000,0xAC,,
16.1993800000,0x9C,,
16.2005250000,0x8C,,
16.2016700000,0x8C,,
16.2028150000,0x5C,,
16.2039600000,0x68,,
16.2051050000,0x5C,,
16.2062500000,0xE2,,
16.2074000000,0x7C,,
16.4364350000,0x3C,,
16.4375800000,0x80,,
16.4387250000,0x5C,,
16.4398750000,0xC0,,
16.4410200000,0x5C,,
16.4421650000,0x70,,
16.4433100000,0x5C,,
16.4444550000,0x60,,
16.4456000000,0x5C,,
16.4467450000,0x82,,
16.4478900000,0xCA,,
16.4490350000,0xF8,,
16.4501800000,0xF8,,
16.4513250000,0x0C,,
16.4524700000,0xEC,,
16.4536150000,0x0C,,
16.4547600000,0xCC,,
16.4559050000,0xAC,,
16.4570500000,0x9C,,
16.4581950000,0x8C,,
16.4593400000,0x8C,,
16.4604850000,0x5C,,
16.4616300000,0x08,,
16.4627750000,0x5C,,
16.4639200000,0xE2,,
16.4650650000,0x7C,,
16.7147100000,0x3C,,
16.7158550000,0x80,,
16.7170000000,0x5C,,
16.7181450000,0xC0,,
16.7192900000,0x5C,,
16.7204350000,0x70,,
16.7215800000,0x5C,,
16.7227250000,0x60,,
16.7238700000,0x5C,,
16.7250150000,0x82,,
16.7261600000,0xCA,,
16.7273050000,0xF8,,
16.7284500000,0xF8,,
16.7295950000,0x0C,,
16.7307400000,0x6C,,
16.7318850000,0x4C,,
16.7330300000,0xCC,,
16.7341750000,0xAC,,
16.7353200000,0x9C,,
16.7364650000,0x8C,,
16.7376100000,0x8C,,
16.7387550000,0x5C,,
16.7399000000,0xC8,,
16.7410450000,0x5C,,
16.7421900000,0xE2,,
16.7433350000,0x7C,,
16.9826650000,0x3C,,
16.9838100000,0x80,,
16.9849550000,0x5C,,
16.9861000000,0xC0,,
16.9872450000,0x5C,,
16.9883900000,0x70,,
16.9895350000,0x5C,,
16.9906800000,0x60,,
16.9918250000,0x5C,,
16.9929700000,0x82,,
16.9941150000,0xCA,,
16.9952600000,0xF8,,
16.9964050000,0xF8,,
16.9975500000,0x0C,,
16.9986950000,0xAC,,
16.9998400000,0xAC,,
17.0009850000,0xCC,,
17.0021300000,0xAC,,
17.0032750000,0x9C,,
17.0044200000,0x8C,,
17.0055650000,0x8C,,
17.0067100000,0x5C,,
17.0078550000,0xE8,,
17.0090000000,0x5C,,
17.0101450000,0xE2,,
17.0112900000,0x7C,,
17.2506300000,0x3C,,
17.2517800000,0x80,,
17.2529250000,0x5C,,
17.2540700000,0xC0,,
17.2552150000,0x5C,,
17.2563600000,0x70,,
17.2575050000,0x5C,,
17.2586500000,0x60,,
17.2597950000,0x5C,,
17.2609400000,0x82,,
17.2620850000,0xCA,,
17.2632300000,0xF8,,
17.2643750000,0xF8,,
17.2655200000,0x0C,,
17.2666650000,0x2C,,
17.2678100000,0x1C,,
17.2689550000,0xCC,,
17.2701000000,0xAC,,
17.2712450000,0x9C,,
17.2723900000,0x8C,,
17.2735350000,0x8C,,
17.2746800000,0x5C,,
17.2758250000,0xD8,,
17.2769700000,0x5C,,
17.2781150000,0xE2,,
17.2792600000,0x7C,,
17.5083000000,0x3C,,
17.5094450000,0x80,,
17.5105900000,0x5C,,
17.5117350000,0xC0,,
17.5128800000,0x5C,,
17.5140250000,0x70,,
17.5151700000,0x5C,,
17.5163150000,0x60,,
17.5174600000,0x5C,,
17.5186050000,0x82,,
17.5197500000,0xCA,,
17.5208950000,0xF8,,
17.5220400000,0xF8,,
17.5231850000,0x0C,,
17.5243300000,0x2C,,
17.5254750000,0x8C,,
17.5266250000,0xCC,,
17.5277700000,0xAC,,
17.5289150000,0x9C,,
17.5300600000,0x8C,,
17.5312050000,0x8C,,
17.5323500000,0x5C,,
17.5334950000,0x48,,
17.5346400000,0x5C,,
17.5357850000,0xE2,,
17.5369300000,0x7C,,
17.7763800000,0x3C,,
17.7775250000,0x80,,
17.7786700000,0x5C,,
17.7798150000,0xC0,,
17.7809600000,0x5C,,
17.7821050000,0x70,,
17.7832500000,0x5C,,
17.7843950000,0x60,,
17.7855400000,0x5C,,
17.7866850000,0x82,,
17.7878300000,0xCA,,
17.7889800000,0xF8,,
17.7901250000,0xF8,,
17.7912700000,0x0C,,
17.7924150000,0xCC,,
17.7935600000,0xCC,,
17.7947050000,0xCC,,
17.7958500000,0xAC,,
17.7969950000,0x9C,,
17.7981400000,0x8C,,
17.7992850000,0x8C,,
17.8004300000,0x5C,,
17.8015750000,0xE8,,
17.8027200000,0x5C,,
17.8038650000,0xE2,,
17.8050100000,0x7C,,
18.0443600000,0x3C,,
18.0455050000,0x80,,
18.0466500000,0x5C,,
18.0477950000,0xC0,,
18.0489400000,0x5C,,
18.0500850000,0x70,,
18.0512300000,0x5C,,
18.0523800000,0x60,,
18.0535250000,0x5C,,
18.0546700000,0x82,,
18.0558150000,0xCA,,
18.0569600000,0xF8,,
18.0581050000,0xF8,,
18.0592500000,0x0C,,
18.0603950000,0x4C,,
18.0615400000,0x6C,,
18.0626850000,0xCC,,
18.0638300000,0xAC,,
18.0649750000,0x9C,,
18.0661200000,0x8C,,
18.0672650000,0x8C,,
18.0684100000,0x5C,,
18.0695550000,0xC8,,
18.0707000000,0x5C,,
18.0718450000,0xE2,,
18.0729900000,0x7C,,
18.3019350000,0x3C,,
18.3030800000,0x80,,
18.3042250000,0x5C,,
18.3053700000,0xC0,,
18.3065150000,0x5C,,
18.3076600000,0x70,,
18.3088050000,0x5C,,
18.3099500000,0x60,,
18.3110950000,0x5C,,
18.3122400000,0x82,,
18.3133850000,0xCA,,
18.3145300000,0xF8,,
18.3156750000,0xF8,,
18.3168250000,0x0C,,
18.3179700000,0x8C,,
18.3191150000,0x9C,,
18.3202600000,0xCC,,
18.3214050000,0xAC,,
18.3225500000,0x9C,,
18.3236950000,0x8C,,
18.3248400000,0x8C,,
18.3259850000,0x5C,,
18.3271300000,0xF8,,
18.3282750000,0x5C,,
18.3294200000,0xE2,,
18.3305650000,0x7C,,
18.5698200000,0x3C,,
18.5709650000,0x80,,
18.5721100000,0x5C,,
18.5732550000,0xC0,,
18.5744000000,0x5C,,
18.5755450000,0x70,,
18.5766900000,0x5C,,
18.5778350000,0x60,,
18.5789800000,0x5C,,
18.5801250000,0x82,,
18.5812700000,0xCA,,
18.5824150000,0xF8,,
18.5835600000,0xF8,,
18.5847050000,0x0C,,
18.5858500000,0x8C,,
18.5869950000,0x4C,,
18.5881400000,0xCC,,
18.5892850000,0xAC,,
18.5904300000,0x9C,,
18.5915750000,0x8C,,
18.5927200000,0x8C,,
18.5938650000,0x5C,,
18.5950100000,0x28,,
18.5961550000,0x5C,,
18.5973000000,0xE2,,
18.5984500000,0x7C,,
18.8333250000,0x3C,,
18.8344700000,0x80,,
18.8356150000,0x5C,,
18.8367600000,0xC0,,
18.8379050000,0x5C,,
18.8390500000,0x70,,
18.8401950000,0x5C,,
18.8413400000,0x60,,
18.8424850000,0x5C,,
18.8436300000,0x82,,
18.8447750000,0xCA,,
18.8459200000,0xF8,,
18.8470650000,0xF8,,
18.8482100000,0x0C,,
18.8493550000,0x0C,,
18.8505000000,0x9C,,
18.8516450000,0xCC,,
18.8527900000,0xAC,,
18.8539400000,0x9C,,
18.8550850000,0x8C,,
18.8562300000,0x8C,,
18.8573750000,0x5C,,
18.8585200000,0x78,,
18.8596650000,0x5C,,
18.8608100000,0xE2,,
18.8619550000,0x7C,,
19.1252500000,0x3C,,
19.1263950000,0x80,,
19.1275400000,0x5C,,
19.1286850000,0xC0,,
19.1298300000,0x5C,,
19.1309750000,0x70,,
19.1321200000,0x5C,,
19.1332650000,0x60,,
19.1344150000,0x5C,,
19.1355600000,0x82,,
19.1367050000,0xCA,,
19.1378500000,0xF8,,
19.1389950000,0xF8,,
19.1401400000,0x0C,,
19.1412850000,0x0C,,
19.1424300000,0x9C,,
19.1435750000,0xCC,,
19.1447200000,0xAC,,
19.1458650000,0x9C,,
19.1470100000,0x8C,,
19.1481550000,0x8C,,
19.1493000000,0x5C,,
19.1504450000,0x78,,
19.1515900000,0x5C,,
19.1527350000,0xE2,,
19.1538800000,0x7C,,
19.2160350000,0x3C,,
19.2171800000,0x80,,
19.2183250000,0x5C,,
19.2194700000,0xC0,,
19.2206150000,0x5C,,
19.2217600000,0x70,,
19.2229050000,0x5C,,
19.2240500000,0x60,,
19.2251950000,0x5C,,
19.2263450000,0x82,,
19.2274900000,0xCA,,
