Time [s],Value,Parity Error,Framing Error
3.9094950000,0x3C,,
3.9106400000,0x80,,
3.9117850000,0x5C,,
3.9129300000,0xC0,,
3.9140750000,0x5C,,
3.9152200000,0x70,,
3.9163650000,0x5C,,
3.9175100000,0x60,,
3.9186550000,0x5C,,
3.9198000000,0x82,,
3.9209500000,0xCA,,
3.9220950000,0xF8,,
3.9232400000,0xF8,,
3.9243850000,0x0C,,
3.9255300000,0x0C,,
3.9266750000,0x9C,,
3.9278200000,0xCC,,
3.9289650000,0xAC,,
3.9301100000,0x9C,,
3.9312550000,0x8C,,
3.9324000000,0x8C,,
3.9335450000,0x5C,,
3.9346900000,0x78,,
3.9358350000,0x5C,,
3.9369800000,0xE2,,
3.9381250000,0x7C,,
3.9801800000,0x3C,,
3.9813250000,0x80,,
3.9824700000,0x5C,,
3.9836150000,0xC0,,
3.9847600000,0x5C,,
3.9859050000,0xB0,,
3.9870500000,0x5C,,
3.9881950000,0x60,,
3.9893450000,0x5C,,
3.9904900000,0xCA,,
3.9916350000,0x2A,,
3.9927800000,0x18,,
3.9939250000,0x00,,
3.9950700000,0x00,,
3.9962150000,0x0C,,
3.9973600000,0x0C,,
3.9985050000,0x9C,,
3.9996500000,0xCC,,
4.0007950000,0xAC,,
4.0019400000,0x9C,,
4.0030850000,0x5C,,
4.0042300000,0x08,,
4.0053750000,0x5C,,
4.0065200000,0xE2,,
4.0076650000,0x7C,,
5.1157550000,0x3C,,
5.1169000000,0x80,,
5.1180450000,0x5C,,
5.1191900000,0xC0,,
5.1203350000,0x5C,,
5.1214800000,0xB0,,
5.1226250000,0x5C,,
5.1237700000,0x60,,
5.1249150000,0x5C,,
5.1260600000,0xCA,,
5.1272050000,0x2A,,
5.1283500000,0x18,,
5.1294950000,0x00,,
5.1306400000,0x00,,
5.1317850000,0x0C,,
5.1329300000,0x0C,,
5.1340750000,0x9C,,
5.1352200000,0xCC,,
5.1363700000,0xAC,,
5.1375150000,0x9C,,
5.1386600000,0x5C,,
5.1398050000,0x08,,
5.1409500000,0x5C,,
5.1420950000,0xE2,,
5.1432400000,0x7C,,
6.1305750000,0x3C,,
6.1317200000,0x80,,
6.1328650000,0x5C,,
6.1340100000,0xC0,,
6.1351550000,0x5C,,
6.1363000000,0xB0,,
6.1374450000,0x5C,,
6.1385900000,0x60,,
6.1397350000,0x5C,,
6.1408800000,0xCA,,
6.1420250000,0x2A,,
6.1431700000,0x18,,
6.1443150000,0x00,,
6.1454600000,0x00,,
6.1466050000,0x0C,,
6.1477500000,0x0C,,
6.1488950000,0x9C,,
6.1500400000,0xCC,,
6.1511850000,0xAC,,
6.1523300000,0x9C,,
6.1534750000,0x5C,,
6.1546200000,0x08,,
6.1557650000,0x5C,,
6.1569100000,0xE2,,
6.1580550000,0x7C,,
7.1453900000,0x3C,,
7.1465350000,0x80,,
7.1476800000,0x5C,,
7.1488250000,0xC0,,
7.1499700000,0x5C,,
7.1511150000,0xB0,,
7.1522600000,0x5C,,
7.1534050000,0x60,,
7.1545500000,0x5C,,
7.1556950000,0xCA,,
7.1568400000,0x2A,,
7.1579850000,0x18,,
7.1591300000,0x00,,
7.1602750000,0x00,,
7.1614200000,0x0C,,
7.1625650000,0x0C,,
7.1637100000,0x9C,,
7.1648550000,0xCC,,
7.1660000000,0xAC,,
7.1671450000,0x9C,,
7.1682900000,0x5C,,
7.1694400000,0x08,,
7.1705850000,0x5C,,
7.1717300000,0xE2,,
7.1728750000,0x7C,,
8.1401200000,0x3C,,
8.1412650000,0x80,,
8.1424100000,0x5C,,
8.1435550000,0xC0,,
8.1447000000,0x5C,,
8.1458450000,0xB0,,
8.1469900000,0x5C,,
8.1481350000,0x60,,
8.1492800000,0x5C,,
8.1504250000,0xCA,,
8.1515700000,0x2A,,
8.1527150000,0x18,,
8.1538600000,0x00,,
8.1550050000,0x00,,
8.1561500000,0x0C,,
8.1572950000,0x0C,,
8.1584400000,0x9C,,
8.1595900000,0xCC,,
8.1607350000,0xAC,,
8.1618800000,0x9C,,
8.1630250000,0x5C,,
8.1641700000,0x08,,
8.1653150000,0x5C,,
8.1664600000,0xE2,,
8.1676050000,0x7C,,
9.1549450000,0x3C,,
9.1560900000,0x80,,
9.1572350000,0x5C,,
9.1583800000,0xC0,,
9.1595250000,0x5C,,
9.1606700000,0xB0,,
9.1618150000,0x5C,,
9.1629600000,0x60,,
9.1641050000,0x5C,,
9.1652500000,0xCA,,
9.1663950000,0x2A,,
9.1675400000,0x18,,
9.1686850000,0x00,,
9.1698300000,0x00,,
9.1709750000,0x0C,,
9.1721200000,0x0C,,
9.1732650000,0x9C,,
9.1744100000,0xCC,,
9.1755550000,0xAC,,
9.1767000000,0x9C,,
9.1778450000,0x5C,,
9.1789900000,0x08,,
9.1801350000,0x5C,,
9.1812800000,0xE2,,
9.1824250000,0x7C,,
10.1496650000,0x3C,,
10.1508100000,0x80,,
10.1519550000,0x5C,,
10.1531000000,0xC0,,
10.1542450000,0x5C,,
10.1553900000,0xB0,,
10.1565350000,0x5C,,
10.1576800000,0x60,,
10.1588250000,0x5C,,
10.1599700000,0xCA,,
10.1611150000,0x2A,,
10.1622600000,0x18,,
10.1634050000,0x00,,
10.1645500000,0x00,,
10.1656950000,0x0C,,
10.1668400000,0x0C,,
10.1679850000,0x9C,,
10.1691300000,0xCC,,
10.1702750000,0xAC,,
10.1714200000,0x9C,,
10.1725650000,0x5C,,
10.1737100000,0x08,,
10.1748550000,0x5C,,
10.1760000000,0xE2,,
10.1771450000,0x7C,,
11.1644850000,0x3C,,
11.1656300000,0x80,,
11.1667750000,0x5C,,
11.1679200000,0xC0,,
11.1690650000,0x5C,,
11.1702100000,0xB0,,
11.1713550000,0x5C,,
11.1725000000,0x60,,
11.1736450000,0x5C,,
11.1747900000,0xCA,,
11.1759350000,0x2A,,
11.1770800000,0x18,,
11.1782250000,0x00,,
11.1793700000,0x00,,
11.1805150000,0x0C,,
11.1816600000,0x0C,,
11.1828050000,0x9C,,
11.1839500000,0xCC,,
11.1851000000,0xAC,,
11.1862450000,0x9C,,
11.1873900000,0x5C,,
11.1885350000,0x08,,
11.1896800000,0x5C,,
11.1908250000,0xE2,,
11.1919700000,0x7C,,
12.1592050000,0x3C,,
12.1603500000,0x80,,
12.1614950000,0x5C,,
12.1626400000,0xC0,,
12.1637850000,0x5C,,
12.1649300000,0xB0,,
12.1660750000,0x5C,,
12.1672200000,0x60,,
12.1683650000,0x5C,,
12.1695100000,0xCA,,
12.1706550000,0x2A,,
12.1718000000,0x18,,
12.1729450000,0x00,,
12.1740900000,0x00,,
12.1752350000,0x0C,,
12.1763800000,0x0C,,
12.1775250000,0x9C,,
12.1786700000,0xCC,,
12.1798150000,0xAC,,
12.1809600000,0x9C,,
12.1821050000,0x5C,,
12.1832500000,0x08,,
12.1843950000,0x5C,,
12.1855400000,0xE2,,
12.1866850000,0x7C,,
12.2689300000,0x3C,,
12.2700750000,0x80,,
12.2712200000,0x5C,,
12.2723650000,0xC0,,
12.2735100000,0x5C,,
12.2746550000,0x70,,
12.2758000000,0x5C,,
12.2769450000,0x60,,
12.2780900000,0x5C,,
12.2792350000,0x82,,
12.2803800000,0xCA,,
12.2815250000,0xF8,,
12.2826700000,0xF8,,
12.2838150000,0x0C,,
12.2849600000,0x0C,,
12.2861050000,0x9C,,
12.2872500000,0xCC,,
12.2883950000,0xAC,,
12.2895400000,0x9C,,
12.2906850000,0x8C,,
12.2918300000,0x8C,,
12.2929750000,0x5C,,
12.2941200000,0x78,,
12.2952650000,0x5C,,
12.2964100000,0xE2,,
12.2975550000,0x7C,,
12.3600200000,0x3C,,
12.3611650000,0x80,,
12.3623100000,0x5C,,
12.3634550000,0xC0,,
12.3646000000,0x5C,,
12.3657450000,0xE0,,
12.3668900000,0x5C,,
12.3680350000,0x60,,
12.3691800000,0x5C,,
12.3703250000,0x0A,,
12.3714700000,0x0A,,
12.3726150000,0x8C,,
12.3737600000,0x1C,,
12.3749050000,0x0C,,
12.3760500000,0x5C,,
12.3771950000,0x5C,,
12.3783400000,0x5C,,
12.3794850000,0xE2,,
12.3806300000,0x7C,,
12.6195550000,0x3C,,
12.6207000000,0x80,,
12.6218450000,0x5C,,
12.6229900000,0xC0,,
12.6241350000,0x5C,,
12.6252800000,0x70,,
12.6264250000,0x5C,,
12.6275700000,0x60,,
12.6287150000,0x5C,,
12.6298600000,0x82,,
12.6310050000,0xCA,,
12.6321500000,0xF8,,
12.6332950000,0xF8,,
12.6344400000,0x0C,,
12.6355850000,0x8C,,
12.6367300000,0x2C,,
12.6378750000,0xCC,,
12.6390200000,0xAC,,
12.6401650000,0x9C,,
12.6413100000,0x8C,,
12.6424550000,0x8C,,
12.6436000000,0x5C,,
12.6447450000,0x48,,
12.6458900000,0x5C,,
12.6470350000,0xE2,,
12.6481800000,0x7C,,
12.8772150000,0x3C,,
12.8783600000,0x80,,
12.8795050000,0x5C,,
12.8806500000,0xC0,,
12.8817950000,0x5C,,
12.8829400000,0x70,,
12.8840850000,0x5C,,
12.8852300000,0x60,,
12.8863750000,0x5C,,
12.8875200000,0x82,,
12.8886650000,0xCA,,
12.8898100000,0xF8,,
12.8909550000,0xF8,,
12.8921000000,0x0C,,
12.8932450000,0x4C,,
12.8943900000,0x8C,,
12.8955350000,0xCC,,
12.8966800000,0xAC,,
12.8978250000,0x9C,,
12.8989700000,0x8C,,
12.9001150000,0x8C,,
12.9012600000,0x5C,,
12.9024050000,0x28,,
12.9035500000,0x5C,,
12.9046950000,0xE2,,
12.9058400000,0x7C,,
13.1451900000,0x3C,,
13.1463350000,0x80,,
13.1474800000,0x5C,,
13.1486250000,0xC0,,
13.1497700000,0x5C,,
13.1509150000,0x70,,
13.1520600000,0x5C,,
13.1532050000,0x60,,
13.1543500000,0x5C,,
13.1554950000,0x82,,
13.1566400000,0xCA,,
13.1577850000,0xF8,,
13.1589300000,0xF8,,
13.1600750000,0x0C,,
13.1612200000,0x4C,,
13.1623650000,0x1C,,
13.1635100000,0xCC,,
13.1646550000,0xAC,,
13.1658000000,0x9C,,
13.1669450000,0x8C,,
13.1680900000,0x8C,,
13.1692350000,0x5C,,
13.1703800000,0xB8,,
13.1715250000,0x5C,,
13.1726700000,0xE2,,
13.1738150000,0x7C,,
13.4132600000,0x3C,,
13.4144050000,0x80,,
13.4155500000,0x5C,,
13.4166950000,0xC0,,
13.4178400000,0x5C,,
13.4189850000,0x70,,
13.4201300000,0x5C,,
13.4212750000,0x60,,
13.4224200000,0x5C,,
13.4235650000,0x82,,
13.4247100000,0xCA,,
13.4258550000,0xF8,,
13.4270000000,0xF8,,
13.4281450000,0x0C,,
13.4292900000,0xCC,,
13.4304350000,0xAC,,
13.4315800000,0xCC,,
13.4327250000,0xAC,,
13.4338700000,0x9C,,
13.4350200000,0x8C,,
13.4361650000,0x8C,,
13.4373100000,0x5C,,
13.4384550000,0x88,,
13.4396000000,0x5C,,
13.4407450000,0xE2,,
13.4418900000,0x7C,,
13.6710200000,0x3C,,
13.6721650000,0x80,,
13.6733100000,0x5C,,
13.6744550000,0xC0,,
13.6756000000,0x5C,,
13.6767450000,0x70,,
13.6778900000,0x5C,,
13.6790350000,0x60,,
13.6801800000,0x5C,,
13.6813250000,0x82,,
13.6824750000,0xCA,,
13.6836200000,0xF8,,
13.6847650000,0xF8,,
13.6859100000,0x0C,,
13.6870550000,0x2C,,
13.6882000000,0x4C,,
13.6893450000,0xCC,,
13.6904900000,0xAC,,
13.6916350000,0x9C,,
13.6927800000,0x8C,,
13.6939250000,0x8C,,
13.6950700000,0x5C,,
13.6962150000,0x88,,
13.6973600000,0x5C,,
13.6985050000,0xE2,,
13.6996500000,0x7C,,
13.9389850000,0x3C,,
13.9401300000,0x80,,
13.9412750000,0x5C,,
13.9424200000,0xC0,,
13.9435650000,0x5C,,
13.9447100000,0x70,,
13.9458550000,0x5C,,
13.9470000000,0x60,,
13.9481450000,0x5C,,
13.9492900000,0x82,,
13.9504350000,0xCA,,
13.9515850000,0xF8,,
13.9527300000,0xF8,,
13.9538750000,0x0C,,
13.9550200000,0x2C,,
13.9561650000,0x9C,,
13.9573100000,0xCC,,
13.9584550000,0xAC,,
13.9596000000,0x9C,,
13.9607450000,0x8C,,
13.9618900000,0x8C,,
13.9630350000,0x5C,,
13.9641800000,0x58,,
13.9653250000,0x5C,,
13.9664700000,0xE2,,
13.9676150000,0x7C,,
14.2070550000,0x3C,,
14.2082000000,0x80,,
14.2093450000,0x5C,,
14.2104900000,0xC0,,
14.2116350000,0x5C,,
14.2127800000,0x70,,
14.2139250000,0x5C,,
14.2150700000,0x60,,
14.2162150000,0x5C,,
14.2173600000,0x82,,
14.2185050000,0xCA,,
14.2196500000,0xF8,,
14.2207950000,0xF8,,
14.2219400000,0x0C,,
14.2230850000,0xAC,,
14.2242300000,0x6C,,
14.2253750000,0xCC,,
14.2265200000,0xAC,,
14.2276650000,0x9C,,
14.2288100000,0x8C,,
14.2299550000,0x8C,,
14.2311000000,0x5C,,
14.2322450000,0x28,,
14.2333900000,0x5C,,
14.2345350000,0xE2,,
14.2356800000,0x7C,,
14.4853250000,0x3C,,
14.4864700000,0x80,,
14.4876150000,0x5C,,
14.4887600000,0xC0,,
14.4899050000,0x5C,,
14.4910500000,0x70,,
14.4921950000,0x5C,,
14.4933400000,0x60,,
14.4944850000,0x5C,,
14.4956300000,0x82,,
14.4967750000,0xCA,,
14.4979200000,0xF8,,
14.4990650000,0xF8,,
14.5002100000,0x0C,,
14.5013550000,0x6C,,
14.5025000000,0x2C,,
14.5036500000,0xCC,,
14.5047950000,0xAC,,
14.5059400000,0x9C,,
14.5070850000,0x8C,,
14.5082300000,0x8C,,
14.5093750000,0x5C,,
14.5105200000,0xA8,,
14.5116650000,0x5C,,
14.5128100000,0xE2,,
14.5139550000,0x7C,,
14.7534000000,0x3C,,
14.7545450000,0x80,,
14.7556900000,0x5C,,
14.7568350000,0xC0,,
14.7579800000,0x5C,,
14.7591250000,0x70,,
14.7602700000,0x5C,,
14.7614150000,0x60,,
14.7625600000,0x5C,,
14.7637050000,0x82,,
14.7648500000,0xCA,,
14.7659950000,0xF8,,
14.7671400000,0xF8,,
14.7682850000,0x0C,,
14.7694300000,0xEC,,
14.7705750000,0x8C,,
14.7717200000,0xCC,,
14.7728650000,0xAC,,
14.7740100000,0x9C,,
14.7751550000,0x8C,,
14.7763050000,0x8C,,
14.7774500000,0x5C,,
14.7785950000,0x88,,
14.7797400000,0x5C,,
14.7808850000,0xE2,,
14.7820300000,0x7C,,
15.0214700000,0x3C,,
15.0226150000,0x80,,
15.0237600000,0x5C,,
15.0249050000,0xC0,,
15.0260500000,0x5C,,
15.0271950000,0x70,,
15.0283450000,0x5C,,
15.0294900000,0x60,,
15.0306350000,0x5C,,
15.0317800000,0x82,,
15.0329250000,0xCA,,
15.0340700000,0xF8,,
15.0352150000,0xF8,,
15.0363600000,0x0C,,
15.0375050000,0xEC,,
15.0386500000,0x9C,,
15.0397950000,0xCC,,
15.0409400000,0xAC,,
15.0420850000,0x9C,,
15.0432300000,0x8C,,
15.0443750000,0x8C,,
15.0455200000,0x5C,,
15.0466650000,0x98,,
15.0478100000,0x5C,,
15.0489550000,0xE2,,
15.0501000000,0x7C,,
15.2894450000,0x3C,,
15.2905900000,0x80,,
15.2917350000,0x5C,,
15.2928800000,0xC0,,
15.2940250000,0x5C,,
15.2951700000,0x70,,
15.2963150000,0x5C,,
15.2974600000,0x60,,
15.2986050000,0x5C,,
15.2997500000,0x82,,
15.3008950000,0xCA,,
15.3020400000,0xF8,,
15.3031850000,0xF8,,
15.3043300000,0x0C,,
15.3054750000,0x1C,,
15.3066200000,0xAC,,
15.3077650000,0xCC,,
15.3089100000,0xAC,,
15.3100550000,0x9C,,
15.3112000000,0x8C,,
15.3123450000,0x8C,,
15.3134900000,0x5C,,
15.3146350000,0x58,,
15.3157800000,0x5C,,
15.3169250000,0xE2,,
15.3180700000,0x7C,,
15.5575200000,0x3C,,
15.5586650000,0x80,,
15.5598100000,0x5C,,
15.5609550000,0xC0,,
15.5621000000,0x5C,,
15.5632450000,0x70,,
15.5643900000,0x5C,,
15.5655350000,0x60,,
15.5666800000,0x5C,,
15.5678250000,0x82,,
15.5689700000,0xCA,,
15.5701150000,0xF8,,
15.5712600000,0xF8,,
15.5724100000,0x0C,,
15.5735550000,0x9C,,
15.5747000000,0xCC,,
15.5758450000,0xCC,,
15.5769900000,0xAC,,
15.5781350000,0x9C,,
15.5792800000,0x8C,,
15.5804250000,0x8C,,
15.5815700000,0x5C,,
15.5827150000,0xB8,,
15.5838600000,0x5C,,
15.5850050000,0xE2,,
15.5861500000,0x7C,,
15.8151900000,0x3C,,
15.8163350000,0x80,,
15.8174800000,0x5C,,
15.8186250000,0xC0,,
15.8197700000,0x5C,,
15.8209150000,0x70,,
15.8220600000,0x5C,,
15.8232050000,0x60,,
15.8243550000,0x5C,,
15.8255000000,0x82,,
15.8266450000,0xCA,,
15.8277900000,0xF8,,
15.8289350000,0xF8,,
15.8300800000,0x0C,,
15.8312250000,0x9C,,
15.8323700000,0x9C,,
15.8335150000,0xCC,,
15.8346600000,0xAC,,
15.8358050000,0x9C,,
15.8369500000,0x8C,,
15.8380950000,0x8C,,
15.8392400000,0x5C,,
15.8403850000,0xE8,,
15.8415300000,0x5C,,
15.8426750000,0xE2,,
15.8438200000,0x7C,,
16.0832700000,0x3C,,
16.0844150000,0x80,,
16.0855600000,0x5C,,
16.0867050000,0xC0,,
16.0878500000,0x5C,,
16.0889950000,0x70,,
16.0901400000,0x5C,,
16.0912850000,0x60,,
16.0924300000,0x5C,,
16.0935750000,0x82,,
16.0947200000,0xCA,,
16.0958650000,0xF8,,
16.0970100000,0xF8,,
16.0981550000,0x8C,,
16.0993000000,0x0C,,
16.1004450000,0xEC,,
16.1015900000,0xCC,,
16.1027350000,0xAC,,
16.1038800000,0x9C,,
16.1050300000,0x8C,,
16.1061750000,0x8C,,
16.1073200000,0x5C,,
16.1084650000,0x88,,
16.1096100000,0x5C,,
16.1107550000,0xE2,,
16.1119000000,0x7C,,
16.3513500000,0x3C,,
16.3524950000,0x80,,
16.3536400000,0x5C,,
16.3547850000,0xC0,,
16.3559300000,0x5C,,
16.3570750000,0x70,,
16.3582200000,0x5C,,
16.3593650000,0x60,,
16.3605100000,0x5C,,
16.3616550000,0x82,,
16.3628000000,0xCA,,
16.3639450000,0xF8,,
16.3650900000,0xF8,,
16.3662350000,0x8C,,
16.3673800000,0x8C,,
16.3685250000,0x2C,,
16.3696700000,0xCC,,
16.3708150000,0xAC,,
16.3719600000,0x9C,,
16.3731050000,0x8C,,
16.3742500000,0x8C,,
16.3753950000,0x5C,,
16.3765400000,0xC8,,
16.3776850000,0x5C,,
16.3788300000,0xE2,,
16.3799750000,0x7C,,
16.6194250000,0x3C,,
16.6205700000,0x80,,
16.6217150000,0x5C,,
16.6228650000,0xC0,,
16.6240100000,0x5C,,
16.6251550000,0x70,,
16.6263000000,0x5C,,
16.6274450000,0x60,,
16.6285900000,0x5C,,
16.6297350000,0x82,,
16.6308800000,0xCA,,
16.6320250000,0xF8,,
16.6331700000,0xF8,,
16.6343150000,0x8C,,
16.6354600000,0x4C,,
16.6366050000,0x8C,,
16.6377500000,0xCC,,
16.6388950000,0xAC,,
16.6400400000,0x9C,,
16.6411850000,0x8C,,
16.6423300000,0x8C,,
16.6434750000,0x5C,,
16.6446200000,0xA8,,
16.6457650000,0x5C,,
16.6469100000,0xE2,,
16.6480550000,0x7C,,
16.8770850000,0x3C,,
16.8782300000,0x80,,
16.8793750000,0x5C,,
16.8805200000,0xC0,,
16.8816650000,0x5C,,
16.8828100000,0x70,,
16.8839550000,0x5C,,
16.8851000000,0x60,,
16.8862450000,0x5C,,
16.8873900000,0x82,,
16.8885350000,0xCA,,
16.8896800000,0xF8,,
16.8908250000,0xF8,,
16.8919700000,0x8C,,
16.8931150000,0x4C,,
16.8942600000,0x1C,,
16.8954050000,0xCC,,
16.8965500000,0xAC,,
16.8976950000,0x9C,,
16.8988400000,0x8C,,
16.8999850000,0x8C,,
16.9011300000,0x5C,,
16.9022750000,0x38,,
16.9034200000,0x5C,,
16.9045650000,0xE2,,
16.9057150000,0x7C,,
17.1347450000,0x3C,,
17.1358900000,0x80,,
17.1370350000,0x5C,,
17.1381850000,0xC0,,
17.1393300000,0x5C,,
17.1404750000,0x70,,
17.1416200000,0x5C,,
17.1427650000,0x60,,
17.1439100000,0x5C,,
17.1450550000,0x82,,
17.1462000000,0xCA,,
17.1473450000,0xF8,,
17.1484900000,0xF8,,
17.1496350000,0x8C,,
17.1507800000,0xCC,,
17.1519250000,0xAC,,
17.1530700000,0xCC,,
17.1542150000,0xAC,,
17.1553600000,0x9C,,
17.1565050000,0x8C,,
17.1576500000,0x8C,,
17.1587950000,0x5C,,
17.1599400000,0x08,,
17.1610850000,0x5C,,
17.1622300000,0xE2,,
17.1633750000,0x7C,,
17.4027150000,0x3C,,
17.4038600000,0x80,,
17.4050050000,0x5C,,
17.4061500000,0xC0,,
17.4072950000,0x5C,,
17.4084400000,0x70,,
17.4095850000,0x5C,,
17.4107300000,0x60,,
17.4118750000,0x5C,,
17.4130200000,0x82,,
17.4141650000,0xCA,,
17.4153100000,0xF8,,
17.4164550000,0xF8,,
17.4176000000,0x8C,,
17.4187450000,0x2C,,
17.4198900000,0x4C,,
17.4210350000,0xCC,,
17.4221800000,0xAC,,
17.4233250000,0x9C,,
17.4244700000,0x8C,,
17.4256200000,0x8C,,
17.4267650000,0x5C,,
17.4279100000,0x08,,
17.4290550000,0x5C,,
17.4302000000,0xE2,,
17.4313450000,0x7C,,
17.6604900000,0x3C,,
17.6616350000,0x80,,
17.6627800000,0x5C,,
17.6639250000,0xC0,,
17.6650700000,0x5C,,
17.6662200000,0x70,,
17.6673650000,0x5C,,
17.6685100000,0x60,,
17.6696550000,0x5C,,
17.6708000000,0x82,,
17.6719450000,0xCA,,
17.6730900000,0xF8,,
17.6742350000,0xF8,,
17.6753800000,0x8C,,
17.6765250000,0x2C,,
17.6776700000,0x9C,,
17.6788150000,0xCC,,
17.6799600000,0xAC,,
17.6811050000,0x9C,,
17.6822500000,0x8C,,
17.6833950000,0x8C,,
17.6845400000,0x5C,,
17.6856850000,0xD8,,
17.6868300000,0x5C,,
17.6879750000,0xE2,,
17.6891200000,0x7C,,
17.9180500000,0x3C,,
17.9191950000,0x80,,
17.9203400000,0x5C,,
17.9214850000,0xC0,,
17.9226300000,0x5C,,
17.9237750000,0x70,,
17.9249200000,0x5C,,
17.9260650000,0x60,,
17.9272100000,0x5C,,
17.9283550000,0x82,,
17.9295000000,0xCA,,
17.9306450000,0xF8,,
17.9317900000,0xF8,,
17.9329350000,0x8C,,
17.9340800000,0xAC,,
17.9352250000,0x6C,,
17.9363700000,0xCC,,
17.9375150000,0xAC,,
17.9386600000,0x9C,,
17.9398050000,0x8C,,
17.9409550000,0x8C,,
17.9421000000,0x5C,,
17.9432450000,0xA8,,
17.9443900000,0x5C,,
17.9455350000,0xE2,,
17.9466800000,0x7C,,
18.1861350000,0x3C,,
18.1872800000,0x80,,
18.1884250000,0x5C,,
18.1895700000,0xC0,,
18.1907150000,0x5C,,
18.1918600000,0x70,,
18.1930050000,0x5C,,
18.1941500000,0x60,,
18.1952950000,0x5C,,
18.1964400000,0x82,,
18.1975850000,0xCA,,
18.1987300000,0xF8,,
18.1998750000,0xF8,,
18.2010200000,0x8C,,
18.2021650000,0x6C,,
18.2033100000,0x2C,,
18.2044550000,0xCC,,
18.2056000000,0xAC,,
18.2067450000,0x9C,,
18.2078900000,0x8C,,
18.2090350000,0x8C,,
18.2101800000,0x5C,,
18.2113250000,0x28,,
18.2124700000,0x5C,,
18.2136150000,0xE2,,
18.2147600000,0x7C,,
18.4540050000,0x3C,,
18.4551500000,0x80,,
18.4562950000,0x5C,,
18.4574400000,0xC0,,
18.4585850000,0x5C,,
18.4597300000,0x70,,
18.4608750000,0x5C,,
18.4620200000,0x60,,
18.4631650000,0x5C,,
18.4643100000,0x82,,
18.4654550000,0xCA,,
18.4666000000,0xF8,,
18.4677450000,0xF8,,
18.4688900000,0x8C,,
18.4700350000,0xEC,,
18.4711850000,0x8C,,
18.4723300000,0xCC,,
18.4734750000,0xAC,,
18.4746200000,0x9C,,
18.4757650000,0x8C,,
18.4769100000,0x8C,,
18.4780550000,0x5C,,
18.4792000000,0x08,,
18.4803450000,0x5C,,
18.4814900000,0xE2,,
18.4826350000,0x7C,,
18.7115700000,0x3C,,
18.7127150000,0x80,,
18.7138600000,0x5C,,
18.7150050000,0xC0,,
18.7161500000,0x5C,,
18.7172950000,0x70,,
18.7184400000,0x5C,,
18.7195850000,0x60,,
18.7207300000,0x5C,,
18.7218750000,0x82,,
18.7230200000,0xCA,,
18.7241650000,0xF8,,
18.7253100000,0xF8,,
18.7264550000,0x8C,,
18.7276000000,0xEC,,
18.7287450000,0xEC,,
18.7298900000,0xCC,,
18.7310350000,0xAC,,
18.7321850000,0x9C,,
18.7333300000,0x8C,,
18.7344750000,0x8C,,
18.7356200000,0x5C,,
18.7367650000,0x68,,
18.7379100000,0x5C,,
18.7390550000,0xE2,,
18.7402000000,0x7C,,
18.9741350000,0x3C,,
18.9752800000,0x80,,
18.9764250000,0x5C,,
18.9775700000,0xC0,,
18.9787150000,0x5C,,
18.9798600000,0x70,,
18.9810050000,0x5C,,
18.9821500000,0x60,,
18.9832950000,0x5C,,
18.9844400000,0x82,,
18.9855850000,0xCA,,
18.9867300000,0xF8,,
18.9878750000,0xF8,,
18.9890200000,0x8C,,
18.9901650000,0x1C,,
18.9913100000,0x0C,,
18.9924550000,0xCC,,
18.9936000000,0xAC,,
18.9947450000,0x9C,,
18.9958900000,0x8C,,
18.9970350000,0x8C,,
18.9981800000,0x5C,,
18.9993250000,0x78,,
19.0004750000,0x5C,,
19.0016200000,0xE2,,
19.0027650000,0x7C,,
19.2459700000,0x3C,,
19.2471150000,0x80,,
19.2482600000,0x5C,,
19.2494050000,0xC0,,
19.2505500000,0x5C,,
19.2516950000,0x70,,
19.2528400000,0x5C,,
19.2539850000,0x60,,
19.2551300000,0x5C,,
19.2562750000,0x82,,
19.2574200000,0xCA,,
19.2585650000,0xF8,,
